iin	I(Iin)	I(V1)
0.000000000000000e+000	0.000000e+000	3.015858e-011
1.000000000000000e-008	1.000000e-008	1.169367e-008
2.000000000000000e-008	2.000000e-008	2.329668e-008
3.000000000000000e-008	3.000000e-008	3.479411e-008
4.000000000000000e-008	4.000000e-008	4.621142e-008
5.000000000000000e-008	5.000000e-008	5.756633e-008
6.000000000000000e-008	6.000000e-008	6.887098e-008
6.999999999999999e-008	7.000000e-008	8.013401e-008
7.999999999999999e-008	8.000000e-008	9.136183e-008
8.999999999999999e-008	9.000000e-008	1.025593e-007
9.999999999999998e-008	1.000000e-007	1.137302e-007
1.100000000000000e-007	1.100000e-007	1.248777e-007
1.200000000000000e-007	1.200000e-007	1.360041e-007
1.300000000000000e-007	1.300000e-007	1.471116e-007
1.400000000000000e-007	1.400000e-007	1.582020e-007
1.500000000000000e-007	1.500000e-007	1.692766e-007
1.600000000000000e-007	1.600000e-007	1.803368e-007
1.700000000000000e-007	1.700000e-007	1.913836e-007
1.800000000000001e-007	1.800000e-007	2.024181e-007
1.900000000000001e-007	1.900000e-007	2.134410e-007
2.000000000000001e-007	2.000000e-007	2.244530e-007
2.100000000000001e-007	2.100000e-007	2.354549e-007
2.200000000000001e-007	2.200000e-007	2.464473e-007
2.300000000000001e-007	2.300000e-007	2.574307e-007
2.400000000000001e-007	2.400000e-007	2.684055e-007
2.500000000000001e-007	2.500000e-007	2.793722e-007
2.600000000000001e-007	2.600000e-007	2.903313e-007
2.700000000000001e-007	2.700000e-007	3.012830e-007
2.800000000000001e-007	2.800000e-007	3.122277e-007
2.900000000000001e-007	2.900000e-007	3.231658e-007
3.000000000000002e-007	3.000000e-007	3.340974e-007
3.100000000000002e-007	3.100000e-007	3.450229e-007
3.200000000000002e-007	3.200000e-007	3.559426e-007
3.300000000000002e-007	3.300000e-007	3.668566e-007
3.400000000000002e-007	3.400000e-007	3.777651e-007
3.500000000000002e-007	3.500000e-007	3.886684e-007
3.600000000000002e-007	3.600000e-007	3.995667e-007
3.700000000000002e-007	3.700000e-007	4.104600e-007
3.800000000000002e-007	3.800000e-007	4.213487e-007
3.900000000000002e-007	3.900000e-007	4.322328e-007
4.000000000000003e-007	4.000000e-007	4.431124e-007
4.100000000000003e-007	4.100000e-007	4.539878e-007
4.200000000000003e-007	4.200000e-007	4.648590e-007
4.300000000000003e-007	4.300000e-007	4.757261e-007
4.400000000000003e-007	4.400000e-007	4.865894e-007
4.500000000000003e-007	4.500000e-007	4.974488e-007
4.600000000000003e-007	4.600000e-007	5.083045e-007
4.700000000000003e-007	4.700000e-007	5.191567e-007
4.800000000000003e-007	4.800000e-007	5.300053e-007
4.900000000000003e-007	4.900000e-007	5.408505e-007
5.000000000000003e-007	5.000000e-007	5.516923e-007
5.100000000000003e-007	5.100000e-007	5.625309e-007
5.200000000000003e-007	5.200000e-007	5.733664e-007
5.300000000000003e-007	5.300000e-007	5.841987e-007
5.400000000000003e-007	5.400000e-007	5.950280e-007
5.500000000000004e-007	5.500000e-007	6.058543e-007
5.600000000000004e-007	5.600000e-007	6.166778e-007
5.700000000000004e-007	5.700000e-007	6.274984e-007
5.800000000000004e-007	5.800000e-007	6.383162e-007
5.900000000000004e-007	5.900000e-007	6.491313e-007
6.000000000000004e-007	6.000000e-007	6.599437e-007
6.100000000000004e-007	6.100000e-007	6.707536e-007
6.200000000000004e-007	6.200000e-007	6.815609e-007
6.300000000000004e-007	6.300000e-007	6.923657e-007
6.400000000000004e-007	6.400000e-007	7.031680e-007
6.500000000000005e-007	6.500000e-007	7.139679e-007
6.600000000000005e-007	6.600000e-007	7.247655e-007
6.700000000000005e-007	6.700000e-007	7.355607e-007
6.800000000000005e-007	6.800000e-007	7.463537e-007
6.900000000000005e-007	6.900000e-007	7.571444e-007
7.000000000000005e-007	7.000000e-007	7.679329e-007
7.100000000000005e-007	7.100000e-007	7.787193e-007
7.200000000000005e-007	7.200000e-007	7.895035e-007
7.300000000000005e-007	7.300000e-007	8.002856e-007
7.400000000000005e-007	7.400000e-007	8.110658e-007
7.500000000000006e-007	7.500000e-007	8.218438e-007
7.600000000000006e-007	7.600000e-007	8.326199e-007
7.700000000000006e-007	7.700000e-007	8.433940e-007
7.800000000000006e-007	7.800000e-007	8.541662e-007
7.900000000000006e-007	7.900000e-007	8.649365e-007
8.000000000000006e-007	8.000000e-007	8.757049e-007
8.100000000000006e-007	8.100000e-007	8.864715e-007
8.200000000000006e-007	8.200000e-007	8.972362e-007
8.300000000000006e-007	8.300000e-007	9.079992e-007
8.400000000000006e-007	8.400000e-007	9.187604e-007
8.500000000000007e-007	8.500000e-007	9.295198e-007
8.600000000000007e-007	8.600000e-007	9.402776e-007
8.700000000000007e-007	8.700000e-007	9.510337e-007
8.800000000000007e-007	8.800000e-007	9.617880e-007
8.900000000000007e-007	8.900000e-007	9.725408e-007
9.000000000000007e-007	9.000000e-007	9.832919e-007
9.100000000000007e-007	9.100000e-007	9.940414e-007
9.200000000000007e-007	9.200000e-007	1.004789e-006
9.300000000000007e-007	9.300000e-007	1.015536e-006
9.400000000000007e-007	9.400000e-007	1.026281e-006
9.500000000000008e-007	9.500000e-007	1.037024e-006
9.600000000000008e-007	9.600000e-007	1.047766e-006
9.700000000000007e-007	9.700000e-007	1.058506e-006
9.800000000000006e-007	9.800000e-007	1.069245e-006
9.900000000000005e-007	9.900000e-007	1.079982e-006
1.000000000000000e-006	1.000000e-006	1.090718e-006
1.010000000000000e-006	1.010000e-006	1.101453e-006
1.020000000000000e-006	1.020000e-006	1.112186e-006
1.030000000000000e-006	1.030000e-006	1.122918e-006
1.040000000000000e-006	1.040000e-006	1.133648e-006
1.050000000000000e-006	1.050000e-006	1.144377e-006
1.060000000000000e-006	1.060000e-006	1.155105e-006
1.070000000000000e-006	1.070000e-006	1.165831e-006
1.080000000000000e-006	1.080000e-006	1.176556e-006
1.090000000000000e-006	1.090000e-006	1.187280e-006
1.099999999999999e-006	1.100000e-006	1.198002e-006
1.109999999999999e-006	1.110000e-006	1.208724e-006
1.119999999999999e-006	1.120000e-006	1.219443e-006
1.129999999999999e-006	1.130000e-006	1.230162e-006
1.139999999999999e-006	1.140000e-006	1.240880e-006
1.149999999999999e-006	1.150000e-006	1.251596e-006
1.159999999999999e-006	1.160000e-006	1.262311e-006
1.169999999999999e-006	1.170000e-006	1.273025e-006
1.179999999999999e-006	1.180000e-006	1.283738e-006
1.189999999999999e-006	1.190000e-006	1.294449e-006
1.199999999999999e-006	1.200000e-006	1.305159e-006
1.209999999999998e-006	1.210000e-006	1.315869e-006
1.219999999999998e-006	1.220000e-006	1.326577e-006
1.229999999999998e-006	1.230000e-006	1.337284e-006
1.239999999999998e-006	1.240000e-006	1.347989e-006
1.249999999999998e-006	1.250000e-006	1.358694e-006
1.259999999999998e-006	1.260000e-006	1.369398e-006
1.269999999999998e-006	1.270000e-006	1.380100e-006
1.279999999999998e-006	1.280000e-006	1.390802e-006
1.289999999999998e-006	1.290000e-006	1.401502e-006
1.299999999999998e-006	1.300000e-006	1.412202e-006
1.309999999999997e-006	1.310000e-006	1.422900e-006
1.319999999999997e-006	1.320000e-006	1.433597e-006
1.329999999999997e-006	1.330000e-006	1.444293e-006
1.339999999999997e-006	1.340000e-006	1.454988e-006
1.349999999999997e-006	1.350000e-006	1.465683e-006
1.359999999999997e-006	1.360000e-006	1.476376e-006
1.369999999999997e-006	1.370000e-006	1.487068e-006
1.379999999999997e-006	1.380000e-006	1.497759e-006
1.389999999999997e-006	1.390000e-006	1.508449e-006
1.399999999999997e-006	1.400000e-006	1.519139e-006
1.409999999999997e-006	1.410000e-006	1.529827e-006
1.419999999999996e-006	1.420000e-006	1.540514e-006
1.429999999999996e-006	1.430000e-006	1.551201e-006
1.439999999999996e-006	1.440000e-006	1.561886e-006
1.449999999999996e-006	1.450000e-006	1.572571e-006
1.459999999999996e-006	1.460000e-006	1.583254e-006
1.469999999999996e-006	1.470000e-006	1.593937e-006
1.479999999999996e-006	1.480000e-006	1.604619e-006
1.489999999999996e-006	1.490000e-006	1.615299e-006
1.499999999999996e-006	1.500000e-006	1.625979e-006
1.509999999999996e-006	1.510000e-006	1.636658e-006
1.519999999999995e-006	1.520000e-006	1.647336e-006
1.529999999999995e-006	1.530000e-006	1.658014e-006
1.539999999999995e-006	1.540000e-006	1.668690e-006
1.549999999999995e-006	1.550000e-006	1.679366e-006
1.559999999999995e-006	1.560000e-006	1.690040e-006
1.569999999999995e-006	1.570000e-006	1.700714e-006
1.579999999999995e-006	1.580000e-006	1.711387e-006
1.589999999999995e-006	1.590000e-006	1.722059e-006
1.599999999999995e-006	1.600000e-006	1.732731e-006
1.609999999999995e-006	1.610000e-006	1.743401e-006
1.619999999999994e-006	1.620000e-006	1.754071e-006
1.629999999999994e-006	1.630000e-006	1.764740e-006
1.639999999999994e-006	1.640000e-006	1.775408e-006
1.649999999999994e-006	1.650000e-006	1.786075e-006
1.659999999999994e-006	1.660000e-006	1.796741e-006
1.669999999999994e-006	1.670000e-006	1.807407e-006
1.679999999999994e-006	1.680000e-006	1.818072e-006
1.689999999999994e-006	1.690000e-006	1.828736e-006
1.699999999999994e-006	1.700000e-006	1.839399e-006
1.709999999999994e-006	1.710000e-006	1.850061e-006
1.719999999999994e-006	1.720000e-006	1.860723e-006
1.729999999999993e-006	1.730000e-006	1.871384e-006
1.739999999999993e-006	1.740000e-006	1.882044e-006
1.749999999999993e-006	1.750000e-006	1.892703e-006
1.759999999999993e-006	1.760000e-006	1.903362e-006
1.769999999999993e-006	1.770000e-006	1.914020e-006
1.779999999999993e-006	1.780000e-006	1.924677e-006
1.789999999999993e-006	1.790000e-006	1.935334e-006
1.799999999999993e-006	1.800000e-006	1.945989e-006
1.809999999999993e-006	1.810000e-006	1.956644e-006
1.819999999999993e-006	1.820000e-006	1.967298e-006
1.829999999999992e-006	1.830000e-006	1.977952e-006
1.839999999999992e-006	1.840000e-006	1.988605e-006
1.849999999999992e-006	1.850000e-006	1.999257e-006
1.859999999999992e-006	1.860000e-006	2.009908e-006
1.869999999999992e-006	1.870000e-006	2.020559e-006
1.879999999999992e-006	1.880000e-006	2.031209e-006
1.889999999999992e-006	1.890000e-006	2.041858e-006
1.899999999999992e-006	1.900000e-006	2.052506e-006
1.909999999999992e-006	1.910000e-006	2.063154e-006
1.919999999999992e-006	1.920000e-006	2.073801e-006
1.929999999999992e-006	1.930000e-006	2.084448e-006
1.939999999999992e-006	1.940000e-006	2.095094e-006
1.949999999999992e-006	1.950000e-006	2.105739e-006
1.959999999999991e-006	1.960000e-006	2.116383e-006
1.969999999999991e-006	1.970000e-006	2.127027e-006
1.979999999999991e-006	1.980000e-006	2.137670e-006
1.989999999999991e-006	1.990000e-006	2.148313e-006
1.999999999999991e-006	2.000000e-006	2.158955e-006
2.009999999999991e-006	2.010000e-006	2.169596e-006
2.019999999999991e-006	2.020000e-006	2.180237e-006
2.029999999999991e-006	2.030000e-006	2.190876e-006
2.039999999999991e-006	2.040000e-006	2.201516e-006
2.049999999999991e-006	2.050000e-006	2.212154e-006
2.059999999999990e-006	2.060000e-006	2.222792e-006
2.069999999999990e-006	2.070000e-006	2.233430e-006
2.079999999999990e-006	2.080000e-006	2.244066e-006
2.089999999999990e-006	2.090000e-006	2.254702e-006
2.099999999999990e-006	2.100000e-006	2.265338e-006
2.109999999999990e-006	2.110000e-006	2.275973e-006
2.119999999999990e-006	2.120000e-006	2.286607e-006
2.129999999999990e-006	2.130000e-006	2.297241e-006
2.139999999999990e-006	2.140000e-006	2.307874e-006
2.149999999999990e-006	2.150000e-006	2.318506e-006
2.159999999999990e-006	2.160000e-006	2.329138e-006
2.169999999999989e-006	2.170000e-006	2.339769e-006
2.179999999999989e-006	2.180000e-006	2.350400e-006
2.189999999999989e-006	2.190000e-006	2.361030e-006
2.199999999999989e-006	2.200000e-006	2.371659e-006
2.209999999999989e-006	2.210000e-006	2.382288e-006
2.219999999999989e-006	2.220000e-006	2.392916e-006
2.229999999999989e-006	2.230000e-006	2.403544e-006
2.239999999999989e-006	2.240000e-006	2.414171e-006
2.249999999999989e-006	2.250000e-006	2.424797e-006
2.259999999999989e-006	2.260000e-006	2.435424e-006
2.269999999999988e-006	2.270000e-006	2.446049e-006
2.279999999999988e-006	2.280000e-006	2.456674e-006
2.289999999999988e-006	2.290000e-006	2.467298e-006
2.299999999999988e-006	2.300000e-006	2.477921e-006
2.309999999999988e-006	2.310000e-006	2.488545e-006
2.319999999999988e-006	2.320000e-006	2.499167e-006
2.329999999999988e-006	2.330000e-006	2.509789e-006
2.339999999999988e-006	2.340000e-006	2.520411e-006
2.349999999999988e-006	2.350000e-006	2.531031e-006
2.359999999999988e-006	2.360000e-006	2.541652e-006
2.369999999999988e-006	2.370000e-006	2.552272e-006
2.379999999999987e-006	2.380000e-006	2.562891e-006
2.389999999999987e-006	2.390000e-006	2.573509e-006
2.399999999999987e-006	2.400000e-006	2.584128e-006
2.409999999999987e-006	2.410000e-006	2.594745e-006
2.419999999999987e-006	2.420000e-006	2.605362e-006
2.429999999999987e-006	2.430000e-006	2.615979e-006
2.439999999999987e-006	2.440000e-006	2.626595e-006
2.449999999999987e-006	2.450000e-006	2.637210e-006
2.459999999999987e-006	2.460000e-006	2.647825e-006
2.469999999999987e-006	2.470000e-006	2.658440e-006
2.479999999999986e-006	2.480000e-006	2.669054e-006
2.489999999999986e-006	2.490000e-006	2.679667e-006
2.499999999999986e-006	2.500000e-006	2.690280e-006
2.509999999999986e-006	2.510000e-006	2.700892e-006
2.519999999999986e-006	2.520000e-006	2.711504e-006
2.529999999999986e-006	2.530000e-006	2.722115e-006
2.539999999999986e-006	2.540000e-006	2.732726e-006
2.549999999999986e-006	2.550000e-006	2.743337e-006
2.559999999999986e-006	2.560000e-006	2.753947e-006
2.569999999999986e-006	2.570000e-006	2.764556e-006
2.579999999999986e-006	2.580000e-006	2.775165e-006
2.589999999999985e-006	2.590000e-006	2.785773e-006
2.599999999999985e-006	2.600000e-006	2.796381e-006
2.609999999999985e-006	2.610000e-006	2.806988e-006
2.619999999999985e-006	2.620000e-006	2.817595e-006
2.629999999999985e-006	2.630000e-006	2.828201e-006
2.639999999999985e-006	2.640000e-006	2.838807e-006
2.649999999999985e-006	2.650000e-006	2.849412e-006
2.659999999999985e-006	2.660000e-006	2.860017e-006
2.669999999999985e-006	2.670000e-006	2.870622e-006
2.679999999999985e-006	2.680000e-006	2.881226e-006
2.689999999999984e-006	2.690000e-006	2.891829e-006
2.699999999999984e-006	2.700000e-006	2.902432e-006
2.709999999999984e-006	2.710000e-006	2.913034e-006
2.719999999999984e-006	2.720000e-006	2.923636e-006
2.729999999999984e-006	2.730000e-006	2.934238e-006
2.739999999999984e-006	2.740000e-006	2.944839e-006
2.749999999999984e-006	2.750000e-006	2.955440e-006
2.759999999999984e-006	2.760000e-006	2.966040e-006
2.769999999999984e-006	2.770000e-006	2.976640e-006
2.779999999999984e-006	2.780000e-006	2.987239e-006
2.789999999999984e-006	2.790000e-006	2.997837e-006
2.799999999999983e-006	2.800000e-006	3.008436e-006
2.809999999999983e-006	2.810000e-006	3.019034e-006
2.819999999999983e-006	2.820000e-006	3.029631e-006
2.829999999999983e-006	2.830000e-006	3.040228e-006
2.839999999999983e-006	2.840000e-006	3.050824e-006
2.849999999999983e-006	2.850000e-006	3.061420e-006
2.859999999999983e-006	2.860000e-006	3.072016e-006
2.869999999999983e-006	2.870000e-006	3.082611e-006
2.879999999999983e-006	2.880000e-006	3.093206e-006
2.889999999999983e-006	2.890000e-006	3.103800e-006
2.899999999999982e-006	2.900000e-006	3.114393e-006
2.909999999999982e-006	2.910000e-006	3.124987e-006
2.919999999999982e-006	2.920000e-006	3.135580e-006
2.929999999999982e-006	2.930000e-006	3.146172e-006
2.939999999999982e-006	2.940000e-006	3.156764e-006
2.949999999999982e-006	2.950000e-006	3.167356e-006
2.959999999999982e-006	2.960000e-006	3.177947e-006
2.969999999999982e-006	2.970000e-006	3.188537e-006
2.979999999999982e-006	2.980000e-006	3.199128e-006
2.989999999999982e-006	2.990000e-006	3.209718e-006
2.999999999999981e-006	3.000000e-006	3.220307e-006
3.009999999999981e-006	3.010000e-006	3.230896e-006
3.019999999999981e-006	3.020000e-006	3.241485e-006
3.029999999999981e-006	3.030000e-006	3.252073e-006
3.039999999999981e-006	3.040000e-006	3.262660e-006
3.049999999999981e-006	3.050000e-006	3.273248e-006
3.059999999999981e-006	3.060000e-006	3.283835e-006
3.069999999999981e-006	3.070000e-006	3.294421e-006
3.079999999999981e-006	3.080000e-006	3.305007e-006
3.089999999999981e-006	3.090000e-006	3.315592e-006
3.099999999999981e-006	3.100000e-006	3.326178e-006
3.109999999999980e-006	3.110000e-006	3.336763e-006
3.119999999999980e-006	3.120000e-006	3.347347e-006
3.129999999999980e-006	3.130000e-006	3.357931e-006
3.139999999999980e-006	3.140000e-006	3.368514e-006
3.149999999999980e-006	3.150000e-006	3.379098e-006
3.159999999999980e-006	3.160000e-006	3.389680e-006
3.169999999999980e-006	3.170000e-006	3.400263e-006
3.179999999999980e-006	3.180000e-006	3.410845e-006
3.189999999999980e-006	3.190000e-006	3.421426e-006
3.199999999999980e-006	3.200000e-006	3.432007e-006
3.209999999999979e-006	3.210000e-006	3.442588e-006
3.219999999999979e-006	3.220000e-006	3.453168e-006
3.229999999999979e-006	3.230000e-006	3.463748e-006
3.239999999999979e-006	3.240000e-006	3.474328e-006
3.249999999999979e-006	3.250000e-006	3.484907e-006
3.259999999999979e-006	3.260000e-006	3.495485e-006
3.269999999999979e-006	3.270000e-006	3.506064e-006
3.279999999999979e-006	3.280000e-006	3.516642e-006
3.289999999999979e-006	3.290000e-006	3.527219e-006
3.299999999999979e-006	3.300000e-006	3.537796e-006
3.309999999999979e-006	3.310000e-006	3.548373e-006
3.319999999999978e-006	3.320000e-006	3.558949e-006
3.329999999999978e-006	3.330000e-006	3.569525e-006
3.339999999999978e-006	3.340000e-006	3.580101e-006
3.349999999999978e-006	3.350000e-006	3.590676e-006
3.359999999999978e-006	3.360000e-006	3.601251e-006
3.369999999999978e-006	3.370000e-006	3.611826e-006
3.379999999999978e-006	3.380000e-006	3.622400e-006
3.389999999999978e-006	3.390000e-006	3.632973e-006
3.399999999999978e-006	3.400000e-006	3.643547e-006
3.409999999999978e-006	3.410000e-006	3.654120e-006
3.419999999999977e-006	3.420000e-006	3.664692e-006
3.429999999999977e-006	3.430000e-006	3.675264e-006
3.439999999999977e-006	3.440000e-006	3.685836e-006
3.449999999999977e-006	3.450000e-006	3.696408e-006
3.459999999999977e-006	3.460000e-006	3.706979e-006
3.469999999999977e-006	3.470000e-006	3.717549e-006
3.479999999999977e-006	3.480000e-006	3.728120e-006
3.489999999999977e-006	3.490000e-006	3.738690e-006
3.499999999999977e-006	3.500000e-006	3.749259e-006
3.509999999999977e-006	3.510000e-006	3.759829e-006
3.519999999999977e-006	3.520000e-006	3.770397e-006
3.529999999999976e-006	3.530000e-006	3.780966e-006
3.539999999999976e-006	3.540000e-006	3.791534e-006
3.549999999999976e-006	3.550000e-006	3.802102e-006
3.559999999999976e-006	3.560000e-006	3.812669e-006
3.569999999999976e-006	3.570000e-006	3.823236e-006
3.579999999999976e-006	3.580000e-006	3.833803e-006
3.589999999999976e-006	3.590000e-006	3.844369e-006
3.599999999999976e-006	3.600000e-006	3.854935e-006
3.609999999999976e-006	3.610000e-006	3.865501e-006
3.619999999999976e-006	3.620000e-006	3.876066e-006
3.629999999999975e-006	3.630000e-006	3.886631e-006
3.639999999999975e-006	3.640000e-006	3.897196e-006
3.649999999999975e-006	3.650000e-006	3.907759e-006
3.659999999999975e-006	3.660000e-006	3.918324e-006
3.669999999999975e-006	3.670000e-006	3.928887e-006
3.679999999999975e-006	3.680000e-006	3.939450e-006
3.689999999999975e-006	3.690000e-006	3.950013e-006
3.699999999999975e-006	3.700000e-006	3.960575e-006
3.709999999999975e-006	3.710000e-006	3.971138e-006
3.719999999999975e-006	3.720000e-006	3.981699e-006
3.729999999999975e-006	3.730000e-006	3.992261e-006
3.739999999999974e-006	3.740000e-006	4.002822e-006
3.749999999999974e-006	3.750000e-006	4.013382e-006
3.759999999999974e-006	3.760000e-006	4.023943e-006
3.769999999999974e-006	3.770000e-006	4.034503e-006
3.779999999999974e-006	3.780000e-006	4.045062e-006
3.789999999999974e-006	3.790000e-006	4.055622e-006
3.799999999999974e-006	3.800000e-006	4.066181e-006
3.809999999999974e-006	3.810000e-006	4.076740e-006
3.819999999999974e-006	3.820000e-006	4.087298e-006
3.829999999999974e-006	3.830000e-006	4.097856e-006
